! Created by GNU Octave05-Feb-2018
# Hz S MA R 0
100000000.000000 0.000000 0.000000 0.996552 -7.204984 0.996552 -7.204984 0.000000 0.000000 
150000000.000000 0.000000 0.000000 0.996552 -10.807477 0.996552 -10.807477 0.000000 0.000000 
200000000.000000 0.000000 0.000000 0.996552 -14.409969 0.996552 -14.409969 0.000000 0.000000 
250000000.000000 0.000000 0.000000 0.996552 -18.012461 0.996552 -18.012461 0.000000 0.000000 
300000000.000000 0.000000 0.000000 0.996552 -21.614953 0.996552 -21.614953 0.000000 0.000000 
350000000.000000 0.000000 0.000000 0.996552 -25.217446 0.996552 -25.217446 0.000000 0.000000 
400000000.000000 0.000000 0.000000 0.996552 -28.819938 0.996552 -28.819938 0.000000 0.000000 
450000000.000000 0.000000 0.000000 0.996552 -32.422430 0.996552 -32.422430 0.000000 0.000000 
500000000.000000 0.000000 0.000000 0.996552 -36.024922 0.996552 -36.024922 0.000000 0.000000 
550000000.000000 0.000000 0.000000 0.996552 -39.627415 0.996552 -39.627415 0.000000 0.000000 
600000000.000000 0.000000 0.000000 0.996552 -43.229907 0.996552 -43.229907 0.000000 0.000000 
650000000.000000 0.000000 0.000000 0.996552 -46.832399 0.996552 -46.832399 0.000000 0.000000 
700000000.000000 0.000000 0.000000 0.996552 -50.434891 0.996552 -50.434891 0.000000 0.000000 
750000000.000000 0.000000 0.000000 0.996552 -54.037383 0.996552 -54.037383 0.000000 0.000000 
800000000.000000 0.000000 0.000000 0.996552 -57.639876 0.996552 -57.639876 0.000000 0.000000 
850000000.000000 0.000000 0.000000 0.996552 -61.242368 0.996552 -61.242368 0.000000 0.000000 
900000000.000000 0.000000 0.000000 0.996552 -64.844860 0.996552 -64.844860 0.000000 0.000000 
950000000.000000 0.000000 0.000000 0.996552 -68.447352 0.996552 -68.447352 0.000000 0.000000 
1000000000.000000 0.000000 0.000000 0.996552 -72.049845 0.996552 -72.049845 0.000000 0.000000 
1050000000.000000 0.000000 0.000000 0.996552 -75.652337 0.996552 -75.652337 0.000000 0.000000 
1100000000.000000 0.000000 0.000000 0.996552 -79.254829 0.996552 -79.254829 0.000000 0.000000 
1150000000.000000 0.000000 0.000000 0.996552 -82.857321 0.996552 -82.857321 0.000000 0.000000 
1200000000.000000 0.000000 0.000000 0.996552 -86.459813 0.996552 -86.459813 0.000000 0.000000 
1250000000.000000 0.000000 0.000000 0.996552 -90.062306 0.996552 -90.062306 0.000000 0.000000 
1300000000.000000 0.000000 0.000000 0.996552 -93.664798 0.996552 -93.664798 0.000000 0.000000 
1350000000.000000 0.000000 0.000000 0.996552 -97.267290 0.996552 -97.267290 0.000000 0.000000 
1400000000.000000 0.000000 0.000000 0.996552 -100.869782 0.996552 -100.869782 0.000000 0.000000 
1450000000.000000 0.000000 0.000000 0.996552 -104.472275 0.996552 -104.472275 0.000000 0.000000 
1500000000.000000 0.000000 0.000000 0.996552 -108.074767 0.996552 -108.074767 0.000000 0.000000 
1550000000.000000 0.000000 0.000000 0.996552 -111.677259 0.996552 -111.677259 0.000000 0.000000 
1600000000.000000 0.000000 0.000000 0.996552 -115.279751 0.996552 -115.279751 0.000000 0.000000 
1650000000.000000 0.000000 0.000000 0.996552 -118.882244 0.996552 -118.882244 0.000000 0.000000 
1700000000.000000 0.000000 0.000000 0.996552 -122.484736 0.996552 -122.484736 0.000000 0.000000 
1750000000.000000 0.000000 0.000000 0.996552 -126.087228 0.996552 -126.087228 0.000000 0.000000 
1800000000.000000 0.000000 0.000000 0.996552 -129.689720 0.996552 -129.689720 0.000000 0.000000 
1850000000.000000 0.000000 0.000000 0.996552 -133.292212 0.996552 -133.292212 0.000000 0.000000 
1900000000.000000 0.000000 0.000000 0.996552 -136.894705 0.996552 -136.894705 0.000000 0.000000 
1950000000.000000 0.000000 0.000000 0.996552 -140.497197 0.996552 -140.497197 0.000000 0.000000 
2000000000.000000 0.000000 0.000000 0.996552 -144.099689 0.996552 -144.099689 0.000000 0.000000 
2050000000.000000 0.000000 0.000000 0.996552 -147.702181 0.996552 -147.702181 0.000000 0.000000 
2100000000.000000 0.000000 0.000000 0.996552 -151.304674 0.996552 -151.304674 0.000000 0.000000 
2150000000.000000 0.000000 0.000000 0.996552 -154.907166 0.996552 -154.907166 0.000000 0.000000 
2200000000.000000 0.000000 0.000000 0.996552 -158.509658 0.996552 -158.509658 0.000000 0.000000 
2250000000.000000 0.000000 0.000000 0.996552 -162.112150 0.996552 -162.112150 0.000000 0.000000 
2300000000.000000 0.000000 0.000000 0.996552 -165.714642 0.996552 -165.714642 0.000000 0.000000 
2350000000.000000 0.000000 0.000000 0.996552 -169.317135 0.996552 -169.317135 0.000000 0.000000 
2400000000.000000 0.000000 0.000000 0.996552 -172.919627 0.996552 -172.919627 0.000000 0.000000 
2450000000.000000 0.000000 0.000000 0.996552 -176.522119 0.996552 -176.522119 0.000000 0.000000 
2500000000.000000 0.000000 0.000000 0.996552 179.875389 0.996552 179.875389 0.000000 0.000000 
2550000000.000000 0.000000 0.000000 0.996552 176.272896 0.996552 176.272896 0.000000 0.000000 
2600000000.000000 0.000000 0.000000 0.996552 172.670404 0.996552 172.670404 0.000000 0.000000 
2650000000.000000 0.000000 0.000000 0.996552 169.067912 0.996552 169.067912 0.000000 0.000000 
2700000000.000000 0.000000 0.000000 0.996552 165.465420 0.996552 165.465420 0.000000 0.000000 
2750000000.000000 0.000000 0.000000 0.996552 161.862927 0.996552 161.862927 0.000000 0.000000 
2800000000.000000 0.000000 0.000000 0.996552 158.260435 0.996552 158.260435 0.000000 0.000000 
2850000000.000000 0.000000 0.000000 0.996552 154.657943 0.996552 154.657943 0.000000 0.000000 
2900000000.000000 0.000000 0.000000 0.996552 151.055451 0.996552 151.055451 0.000000 0.000000 
2950000000.000000 0.000000 0.000000 0.996552 147.452959 0.996552 147.452959 0.000000 0.000000 
3000000000.000000 0.000000 0.000000 0.996552 143.850466 0.996552 143.850466 0.000000 0.000000 
3050000000.000000 0.000000 0.000000 0.996552 140.247974 0.996552 140.247974 0.000000 0.000000 
3100000000.000000 0.000000 0.000000 0.996552 136.645482 0.996552 136.645482 0.000000 0.000000 
3150000000.000000 0.000000 0.000000 0.996552 133.042990 0.996552 133.042990 0.000000 0.000000 
3200000000.000000 0.000000 0.000000 0.996552 129.440497 0.996552 129.440497 0.000000 0.000000 
3250000000.000000 0.000000 0.000000 0.996552 125.838005 0.996552 125.838005 0.000000 0.000000 
3300000000.000000 0.000000 0.000000 0.996552 122.235513 0.996552 122.235513 0.000000 0.000000 
3350000000.000000 0.000000 0.000000 0.996552 118.633021 0.996552 118.633021 0.000000 0.000000 
3400000000.000000 0.000000 0.000000 0.996552 115.030528 0.996552 115.030528 0.000000 0.000000 
3450000000.000000 0.000000 0.000000 0.996552 111.428036 0.996552 111.428036 0.000000 0.000000 
3500000000.000000 0.000000 0.000000 0.996552 107.825544 0.996552 107.825544 0.000000 0.000000 
3550000000.000000 0.000000 0.000000 0.996552 104.223052 0.996552 104.223052 0.000000 0.000000 
3600000000.000000 0.000000 0.000000 0.996552 100.620560 0.996552 100.620560 0.000000 0.000000 
3650000000.000000 0.000000 0.000000 0.996552 97.018067 0.996552 97.018067 0.000000 0.000000 
3700000000.000000 0.000000 0.000000 0.996552 93.415575 0.996552 93.415575 0.000000 0.000000 
3750000000.000000 0.000000 0.000000 0.996552 89.813083 0.996552 89.813083 0.000000 0.000000 
3800000000.000000 0.000000 0.000000 0.996552 86.210591 0.996552 86.210591 0.000000 0.000000 
3850000000.000000 0.000000 0.000000 0.996552 82.608098 0.996552 82.608098 0.000000 0.000000 
3900000000.000000 0.000000 0.000000 0.996552 79.005606 0.996552 79.005606 0.000000 0.000000 
3950000000.000000 0.000000 0.000000 0.996552 75.403114 0.996552 75.403114 0.000000 0.000000 
4000000000.000000 0.000000 0.000000 0.996552 71.800622 0.996552 71.800622 0.000000 0.000000 
4050000000.000000 0.000000 0.000000 0.996552 68.198130 0.996552 68.198130 0.000000 0.000000 
4100000000.000000 0.000000 0.000000 0.996552 64.595637 0.996552 64.595637 0.000000 0.000000 
4150000000.000000 0.000000 0.000000 0.996552 60.993145 0.996552 60.993145 0.000000 0.000000 
4200000000.000000 0.000000 0.000000 0.996552 57.390653 0.996552 57.390653 0.000000 0.000000 
4250000000.000000 0.000000 0.000000 0.996552 53.788161 0.996552 53.788161 0.000000 0.000000 
4300000000.000000 0.000000 0.000000 0.996552 50.185668 0.996552 50.185668 0.000000 0.000000 
4350000000.000000 0.000000 0.000000 0.996552 46.583176 0.996552 46.583176 0.000000 0.000000 
4400000000.000000 0.000000 0.000000 0.996552 42.980684 0.996552 42.980684 0.000000 0.000000 
4450000000.000000 0.000000 0.000000 0.996552 39.378192 0.996552 39.378192 0.000000 0.000000 
4500000000.000000 0.000000 0.000000 0.996552 35.775699 0.996552 35.775699 0.000000 0.000000 
4550000000.000000 0.000000 0.000000 0.996552 32.173207 0.996552 32.173207 0.000000 0.000000 
4600000000.000000 0.000000 0.000000 0.996552 28.570715 0.996552 28.570715 0.000000 0.000000 
4650000000.000000 0.000000 0.000000 0.996552 24.968223 0.996552 24.968223 0.000000 0.000000 
4700000000.000000 0.000000 0.000000 0.996552 21.365731 0.996552 21.365731 0.000000 0.000000 
4750000000.000000 0.000000 0.000000 0.996552 17.763238 0.996552 17.763238 0.000000 0.000000 
4800000000.000000 0.000000 0.000000 0.996552 14.160746 0.996552 14.160746 0.000000 0.000000 
4850000000.000000 0.000000 0.000000 0.996552 10.558254 0.996552 10.558254 0.000000 0.000000 
4900000000.000000 0.000000 0.000000 0.996552 6.955762 0.996552 6.955762 0.000000 0.000000 
4950000000.000000 0.000000 0.000000 0.996552 3.353269 0.996552 3.353269 0.000000 0.000000 
5000000000.000000 0.000000 0.000000 0.996552 -0.249223 0.996552 -0.249223 0.000000 0.000000 
