<Qucs Dataset 0.0.18>
<indep frequency 99>
  +1.00000000000e+08
  +1.50000000000e+08
  +2.00000000000e+08
  +2.50000000000e+08
  +3.00000000000e+08
  +3.50000000000e+08
  +4.00000000000e+08
  +4.50000000000e+08
  +5.00000000000e+08
  +5.50000000000e+08
  +6.00000000000e+08
  +6.50000000000e+08
  +7.00000000000e+08
  +7.50000000000e+08
  +8.00000000000e+08
  +8.50000000000e+08
  +9.00000000000e+08
  +9.50000000000e+08
  +1.00000000000e+09
  +1.05000000000e+09
  +1.10000000000e+09
  +1.15000000000e+09
  +1.20000000000e+09
  +1.25000000000e+09
  +1.30000000000e+09
  +1.35000000000e+09
  +1.40000000000e+09
  +1.45000000000e+09
  +1.50000000000e+09
  +1.55000000000e+09
  +1.60000000000e+09
  +1.65000000000e+09
  +1.70000000000e+09
  +1.75000000000e+09
  +1.80000000000e+09
  +1.85000000000e+09
  +1.90000000000e+09
  +1.95000000000e+09
  +2.00000000000e+09
  +2.05000000000e+09
  +2.10000000000e+09
  +2.15000000000e+09
  +2.20000000000e+09
  +2.25000000000e+09
  +2.30000000000e+09
  +2.35000000000e+09
  +2.40000000000e+09
  +2.45000000000e+09
  +2.50000000000e+09
  +2.55000000000e+09
  +2.60000000000e+09
  +2.65000000000e+09
  +2.70000000000e+09
  +2.75000000000e+09
  +2.80000000000e+09
  +2.85000000000e+09
  +2.90000000000e+09
  +2.95000000000e+09
  +3.00000000000e+09
  +3.05000000000e+09
  +3.10000000000e+09
  +3.15000000000e+09
  +3.20000000000e+09
  +3.25000000000e+09
  +3.30000000000e+09
  +3.35000000000e+09
  +3.40000000000e+09
  +3.45000000000e+09
  +3.50000000000e+09
  +3.55000000000e+09
  +3.60000000000e+09
  +3.65000000000e+09
  +3.70000000000e+09
  +3.75000000000e+09
  +3.80000000000e+09
  +3.85000000000e+09
  +3.90000000000e+09
  +3.95000000000e+09
  +4.00000000000e+09
  +4.05000000000e+09
  +4.10000000000e+09
  +4.15000000000e+09
  +4.20000000000e+09
  +4.25000000000e+09
  +4.30000000000e+09
  +4.35000000000e+09
  +4.40000000000e+09
  +4.45000000000e+09
  +4.50000000000e+09
  +4.55000000000e+09
  +4.60000000000e+09
  +4.65000000000e+09
  +4.70000000000e+09
  +4.75000000000e+09
  +4.80000000000e+09
  +4.85000000000e+09
  +4.90000000000e+09
  +4.95000000000e+09
  +5.00000000000e+09
</indep>
<dep S[4,4] frequency>
  -3.33625637837e-01-j1.39565120047e-02
  -3.33990658206e-01-j2.09233005540e-02
  -3.34501015415e-01-j2.78763562793e-02
  -3.35156040796e-01-j3.48111483003e-02
  -3.35954878395e-01-j4.17231855137e-02
  -3.36896487753e-01-j4.86080261950e-02
  -3.37979647280e-01-j5.54612873769e-02
  -3.39202958186e-01-j6.22786539623e-02
  -3.40564848965e-01-j6.90558875336e-02
  -3.42063580379e-01-j7.57888348217e-02
  -3.43697250934e-01-j8.24734357998e-02
  -3.45463802813e-01-j8.91057313723e-02
  -3.47361028220e-01-j9.56818706289e-02
  -3.49386576113e-01-j1.02198117641e-01
  -3.51537959285e-01-j1.08650857773e-01
  -3.53812561746e-01-j1.15036603502e-01
  -3.56207646381e-01-j1.21351999714e-01
  -3.58720362832e-01-j1.27593828478e-01
  -3.61347755566e-01-j1.33759013287e-01
  -3.64086772098e-01-j1.39844622757e-01
  -3.66934271313e-01-j1.45847873782e-01
  -3.69887031864e-01-j1.51766134158e-01
  -3.72941760593e-01-j1.57596924663e-01
  -3.76095100955e-01-j1.63337920615e-01
  -3.79343641383e-01-j1.68986952908e-01
  -3.82683923596e-01-j1.74542008552e-01
  -3.86112450777e-01-j1.80001230712e-01
  -3.89625695626e-01-j1.85362918288e-01
  -3.93220108236e-01-j1.90625525031e-01
  -3.96892123774e-01-j1.95787658238e-01
  -4.00638169949e-01-j2.00848077027e-01
  -4.04454674229e-01-j2.05805690235e-01
  -4.08338070805e-01-j2.10659553952e-01
  -4.12284807273e-01-j2.15408868719e-01
  -4.16291351026e-01-j2.20052976414e-01
  -4.20354195337e-01-j2.24591356866e-01
  -4.24469865133e-01-j2.29023624192e-01
  -4.28634922436e-01-j2.33349522925e-01
  -4.32845971483e-01-j2.37568923926e-01
  -4.37099663512e-01-j2.41681820114e-01
  -4.41392701205e-01-j2.45688322059e-01
  -4.45721842803e-01-j2.49588653426e-01
  -4.50083905889e-01-j2.53383146332e-01
  -4.54475770829e-01-j2.57072236608e-01
  -4.58894383901e-01-j2.60656459014e-01
  -4.63336760096e-01-j2.64136442403e-01
  -4.67799985604e-01-j2.67512904874e-01
  -4.72281220003e-01-j2.70786648926e-01
  -4.76777698143e-01-j2.73958556618e-01
  -4.81286731757e-01-j2.77029584781e-01
  -4.85805710784e-01-j2.80000760264e-01
  -4.90332104434e-01-j2.82873175245e-01
  -4.94863462006e-01-j2.85647982628e-01
  -4.99397413458e-01-j2.88326391512e-01
  -5.03931669757e-01-j2.90909662768e-01
  -5.08464023004e-01-j2.93399104718e-01
  -5.12992346374e-01-j2.95796068929e-01
  -5.17514593849e-01-j2.98101946128e-01
  -5.22028799783e-01-j3.00318162246e-01
  -5.26533078308e-01-j3.02446174591e-01
  -5.31025622572e-01-j3.04487468162e-01
  -5.35504703856e-01-j3.06443552099e-01
  -5.39968670550e-01-j3.08315956271e-01
  -5.44415947019e-01-j3.10106228020e-01
  -5.48845032357e-01-j3.11815929035e-01
  -5.53254499058e-01-j3.13446632378e-01
  -5.57642991587e-01-j3.14999919656e-01
  -5.62009224892e-01-j3.16477378326e-01
  -5.66351982840e-01-j3.17880599156e-01
  -5.70670116600e-01-j3.19211173812e-01
  -5.74962542982e-01-j3.20470692592e-01
  -5.79228242733e-01-j3.21660742291e-01
  -5.83466258797e-01-j3.22782904196e-01
  -5.87675694561e-01-j3.23838752216e-01
  -5.91855712072e-01-j3.24829851128e-01
  -5.96005530251e-01-j3.25757754952e-01
  -6.00124423088e-01-j3.26624005442e-01
  -6.04211717856e-01-j3.27430130685e-01
  -6.08266793305e-01-j3.28177643819e-01
  -6.12289077887e-01-j3.28868041849e-01
  -6.16278047979e-01-j3.29502804567e-01
  -6.20233226126e-01-j3.30083393570e-01
  -6.24154179309e-01-j3.30611251366e-01
  -6.28040517229e-01-j3.31087800577e-01
  -6.31891890620e-01-j3.31514443218e-01
  -6.35707989591e-01-j3.31892560062e-01
  -6.39488541995e-01-j3.32223510081e-01
  -6.43233311837e-01-j3.32508629952e-01
  -6.46942097704e-01-j3.32749233644e-01
  -6.50614731244e-01-j3.32946612057e-01
  -6.54251075673e-01-j3.33102032734e-01
  -6.57851024316e-01-j3.33216739617e-01
  -6.61414499200e-01-j3.33291952870e-01
  -6.64941449669e-01-j3.33328868743e-01
  -6.68431851053e-01-j3.33328659487e-01
  -6.71885703362e-01-j3.33292473313e-01
  -6.75303030034e-01-j3.33221434393e-01
  -6.78683876709e-01-j3.33116642895e-01
  -6.82028310055e-01-j3.32979175060e-01
</dep>
<dep S[3,3] frequency>
  -3.32741680479e-01+j2.79968662773e-02
  -3.31989913425e-01+j4.20742398550e-02
  -3.30914837900e-01+j5.62440273328e-02
  -3.29494240665e-01+j7.05332056318e-02
  -3.27700111643e-01+j8.49655304014e-02
  -3.25499047464e-01+j9.95608043931e-02
  -3.22852735050e-01+j1.14334193675e-01
  -3.19718509639e-01+j1.29295599986e-01
  -3.16049980806e-01+j1.44449096870e-01
  -3.11797719279e-01+j1.59792436486e-01
  -3.06909996663e-01+j1.75316633155e-01
  -3.01333569604e-01+j1.91005628836e-01
  -2.95014499450e-01+j2.06836044748e-01
  -2.87898998100e-01+j2.22777022401e-01
  -2.79934290464e-01+j2.38790156278e-01
  -2.71069483815e-01+j2.54829519363e-01
  -2.61256434288e-01+j2.70841781707e-01
  -2.50450600831e-01+j2.86766421186e-01
  -2.38611877136e-01+j3.02536024596e-01
  -2.25705392327e-01+j3.18076676299e-01
  -2.11702271596e-01+j3.33308430664e-01
  -1.96580348440e-01+j3.48145863720e-01
  -1.80324820717e-01+j3.62498698606e-01
  -1.62928843388e-01+j3.76272498683e-01
  -1.44394051486e-01+j3.89369421510e-01
  -1.24731007644e-01+j4.01689026313e-01
  -1.03959569307e-01+j4.13129127093e-01
  -8.21091715807e-02+j4.23586683113e-01
  -5.92190225766e-02+j4.32958718216e-01
  -3.53382089514e-02+j4.41143260201e-01
  -1.05257102666e-02+j4.48040291368e-01
  +1.51496783405e-02+j4.53552701332e-01
  +4.16095148020e-02+j4.57587233233e-01
  +6.87659688584e-02+j4.60055414660e-01
  +9.65221688470e-02+j4.60874464783e-01
  +1.24772633710e-01+j4.59968169544e-01
  +1.53403786655e-01+j4.57267717080e-01
  +1.82294546203e-01+j4.52712486028e-01
  +2.11316989735e-01+j4.46250779824e-01
  +2.40337084050e-01+j4.37840500692e-01
  +2.69215476962e-01+j4.27449757559e-01
  +2.97808343477e-01+j4.15057402809e-01
  +3.25968279756e-01+j4.00653493405e-01
  +3.53545237686e-01+j3.84239672619e-01
  +3.80387492723e-01+j3.65829469264e-01
  +4.06342637396e-01+j3.45448512076e-01
  +4.31258592833e-01+j3.23134657556e-01
  +4.54984630559e-01+j2.98938030299e-01
  +4.77372396875e-01+j2.72920975546e-01
  +4.98276932180e-01+j2.45157924341e-01
  +5.17557677738e-01+j2.15735172358e-01
  +5.35079462592e-01+j1.84750574084e-01
  +5.50713463542e-01+j1.52313154656e-01
  +5.64338131433e-01+j1.18542642208e-01
  +5.75840077271e-01+j8.35689241509e-02
  +5.85114912117e-01+j4.75314312577e-02
  +5.92068035064e-01+j1.05784539490e-02
  +5.96615364066e-01-j2.71336044722e-02
  +5.98684004836e-01-j6.54410324716e-02
  +5.98212853513e-01-j1.04173667349e-01
  +5.95153129305e-01-j1.43155798955e-01
  +5.89468833831e-01-j1.82207114068e-01
  +5.81137134391e-01-j2.21143675240e-01
  +5.70148668955e-01-j2.59778927771e-01
  +5.56507771151e-01-j2.97924728400e-01
  +5.40232614115e-01-j3.35392389186e-01
  +5.21355272542e-01-j3.71993730112e-01
  +4.99921702831e-01-j4.07542133889e-01
  +4.75991641702e-01-j4.41853596587e-01
  +4.49638424171e-01-j4.74747767742e-01
  +4.20948722241e-01-j5.06048973803e-01
  +3.90022206126e-01-j5.35587218890e-01
  +3.56971130259e-01-j5.63199157099e-01
  +3.21919846767e-01-j5.88729030771e-01
  +2.85004249471e-01-j6.12029569449e-01
  +2.46371151843e-01-j6.32962844518e-01
  +2.06177602694e-01-j6.51401074811e-01
  +1.64590143677e-01-j6.67227378844e-01
  +1.21784012964e-01-j6.80336469643e-01
  +7.79422997309e-02-j6.90635288530e-01
  +3.32550542789e-02-j6.98043574574e-01
  -1.20816411596e-02-j7.02494366845e-01
  -5.78666357381e-02-j7.03934436967e-01
  -1.03894702103e-01-j7.02324649893e-01
  -1.49957551860e-01-j6.97640251228e-01
  -1.95844868891e-01-j6.89871079828e-01
  -2.41345354990e-01-j6.79021704821e-01
  -2.86247782245e-01-j6.65111486601e-01
  -3.30342046651e-01-j6.48174561740e-01
  -3.73420217428e-01-j6.28259752179e-01
  -4.15277576663e-01-j6.05430399428e-01
  -4.55713643917e-01-j5.79764124884e-01
  -4.94533180623e-01-j5.51352517780e-01
  -5.31547169217e-01-j5.20300752569e-01
  -5.66573762114e-01-j4.86727137955e-01
  -5.99439195862e-01-j4.50762600062e-01
  -6.29978665978e-01-j4.12550102563e-01
  -6.58037158239e-01-j3.72244006877e-01
  -6.83470232429e-01-j3.30009375812e-01
</dep>
<dep S[1,1] frequency>
  +0.00000000000e+00
  +0.00000000000e+00
  +0.00000000000e+00
  +0.00000000000e+00
  +0.00000000000e+00
  +0.00000000000e+00
  +0.00000000000e+00
  +0.00000000000e+00
  +0.00000000000e+00
  +0.00000000000e+00
  +0.00000000000e+00
  +0.00000000000e+00
  +0.00000000000e+00
  +0.00000000000e+00
  +0.00000000000e+00
  +0.00000000000e+00
  +0.00000000000e+00
  +0.00000000000e+00
  +0.00000000000e+00
  +0.00000000000e+00
  +0.00000000000e+00
  +0.00000000000e+00
  +0.00000000000e+00
  +0.00000000000e+00
  +0.00000000000e+00
  +0.00000000000e+00
  +0.00000000000e+00
  +0.00000000000e+00
  +0.00000000000e+00
  +0.00000000000e+00
  +0.00000000000e+00
  +0.00000000000e+00
  +0.00000000000e+00
  +0.00000000000e+00
  +0.00000000000e+00
  +0.00000000000e+00
  +0.00000000000e+00
  +0.00000000000e+00
  +0.00000000000e+00
  +0.00000000000e+00
  +0.00000000000e+00
  +0.00000000000e+00
  +0.00000000000e+00
  +0.00000000000e+00
  +0.00000000000e+00
  +0.00000000000e+00
  +0.00000000000e+00
  +0.00000000000e+00
  +0.00000000000e+00
  +0.00000000000e+00
  +0.00000000000e+00
  +0.00000000000e+00
  +0.00000000000e+00
  +0.00000000000e+00
  +0.00000000000e+00
  +0.00000000000e+00
  +0.00000000000e+00
  +0.00000000000e+00
  +0.00000000000e+00
  +0.00000000000e+00
  +0.00000000000e+00
  +0.00000000000e+00
  +0.00000000000e+00
  +0.00000000000e+00
  +0.00000000000e+00
  +0.00000000000e+00
  +0.00000000000e+00
  +0.00000000000e+00
  +0.00000000000e+00
  +0.00000000000e+00
  +0.00000000000e+00
  +0.00000000000e+00
  +0.00000000000e+00
  +0.00000000000e+00
  +0.00000000000e+00
  +0.00000000000e+00
  +0.00000000000e+00
  +0.00000000000e+00
  +0.00000000000e+00
  +0.00000000000e+00
  +0.00000000000e+00
  +0.00000000000e+00
  +0.00000000000e+00
  +0.00000000000e+00
  +0.00000000000e+00
  +0.00000000000e+00
  +0.00000000000e+00
  +0.00000000000e+00
  +0.00000000000e+00
  +0.00000000000e+00
  +0.00000000000e+00
  +0.00000000000e+00
  +0.00000000000e+00
  +0.00000000000e+00
  +0.00000000000e+00
  +0.00000000000e+00
  +0.00000000000e+00
  +0.00000000000e+00
  +0.00000000000e+00
</dep>
<dep S[1,2] frequency>
  +9.88683099794e-01-j1.24987105749e-01
  +9.78876027072e-01-j1.86862976654e-01
  +9.65200428947e-01-j2.48000363673e-01
  +9.47710351483e-01-j3.08157651394e-01
  +9.26474915599e-01-j3.67097097764e-01
  +9.01578043896e-01-j4.24585773649e-01
  +8.73118128999e-01-j4.80396483371e-01
  +8.41207644703e-01-j5.34308662585e-01
  +8.05972701484e-01-j5.86109249956e-01
  +7.67552548100e-01-j6.35593529172e-01
  +7.26099021287e-01-j6.82565937992e-01
  +6.81775945693e-01-j7.26840841103e-01
  +6.34758486445e-01-j7.68243263756e-01
  +5.85232456896e-01-j8.06609583266e-01
  +5.33393584286e-01-j8.41788175649e-01
  +4.79446736228e-01-j8.73640014846e-01
  +4.23605111071e-01-j9.02039222149e-01
  +3.66089395336e-01-j9.26873563677e-01
  +3.07126891564e-01-j9.48044893926e-01
  +2.46950620012e-01-j9.65469543640e-01
  +1.85798397756e-01-j9.79078650473e-01
  +1.23911898838e-01-j9.88818431132e-01
  +6.15356991663e-02-j9.94650393932e-01
  -1.08369005045e-03-j9.96551490911e-01
  -6.36987965160e-02-j9.94514208920e-01
  -1.26062164860e-01-j9.88546599312e-01
  -1.87927334582e-01-j9.78672246126e-01
  -2.49049814068e-01-j9.64930172880e-01
  -3.09188046820e-01-j9.47374688349e-01
  -3.68104366090e-01-j9.26075171941e-01
  -4.25565934144e-01-j9.01115799505e-01
  -4.81345662432e-01-j8.72595210667e-01
  -5.35223109051e-01-j8.40626119008e-01
  -5.86985349926e-01-j8.05334866619e-01
  -6.36427820294e-01-j7.66860924795e-01
  -6.83355123140e-01-j7.25356342841e-01
  -7.27581801412e-01-j6.80985147177e-01
  -7.68933070945e-01-j6.33922693101e-01
  -8.07245511211e-01-j5.84354971785e-01
  -8.42367711160e-01-j5.32477875236e-01
  -8.74160867593e-01-j4.78496422128e-01
  -9.02499333718e-01-j4.22623947570e-01
  -9.27271115704e-01-j3.65081259999e-01
  -9.48378315282e-01-j3.06095768549e-01
  -9.65737516642e-01-j2.45900584325e-01
  -9.79280116089e-01-j1.84733599147e-01
  -9.88952593169e-01-j1.22836545398e-01
  -9.94716722180e-01-j6.04540407007e-02
  -9.96549723240e-01+j2.16737881940e-03
  -9.94444352316e-01+j6.47802328422e-02
  -9.88408929850e-01+j1.27137074899e-01
  -9.78467307876e-01+j1.88991470281e-01
  -9.64658775759e-01+j2.50098969955e-01
  -9.47037904921e-01+j3.10218076623e-01
  -9.25674333177e-01+j3.69111199124e-01
  -9.00652489522e-01+j4.26545591396e-01
  -8.72071260469e-01+j4.82294272291e-01
  -8.40043599252e-01+j5.36136922602e-01
  -8.04696079426e-01+j5.87860755772e-01
  -7.66168394657e-01+j6.37261358824e-01
  -7.24612806642e-01+j6.84143500204e-01
  -6.80193543378e-01+j7.28321901337e-01
  -6.33086150127e-01+j7.69621968851e-01
  -5.83476795660e-01+j8.07880484569e-01
  -5.31561536518e-01+j8.42946250550e-01
  -4.77545542194e-01+j8.74680686623e-01
  -4.21642284305e-01+j9.02958378059e-01
  -3.64072692944e-01+j9.27667571209e-01
  -3.05064283568e-01+j9.48710615157e-01
  -2.44850257855e-01+j9.66004347635e-01
  -1.83668582086e-01+j9.79480423682e-01
  -1.21761046701e-01+j9.89085585744e-01
  -5.93723107467e-02+j9.94781874150e-01
  +3.25106502538e-03+j9.96546777124e-01
  +6.58615925641e-02+j9.94373319758e-01
  +1.28211834595e-01+j9.88270091569e-01
  +1.90055382493e-01+j9.78261212564e-01
  +2.51147830094e-01+j9.64386237905e-01
  +3.11247739585e-01+j9.46700001597e-01
  +3.70117595674e-01+j9.25272399779e-01
  +4.27524744248e-01+j9.00188114494e-01
  +4.83242311824e-01+j8.71546279026e-01
  +5.37050102158e-01+j8.39460086123e-01
  +5.88735466458e-01+j8.04056340660e-01
  +6.38094143776e-01+j7.65474958506e-01
  +6.84931068251e-01+j7.23868413571e-01
  +7.29061140004e-01+j6.79401135234e-01
  +7.70309956660e-01+j6.32248858513e-01
  +8.08514502588e-01+j5.82597929558e-01
  +8.43523793135e-01+j5.30644569214e-01
  +8.75199471321e-01+j4.76594097551e-01
  +9.03416354629e-01+j4.20660122438e-01
  +9.28062929725e-01+j3.63063695364e-01
  +9.49041793158e-01+j3.04032437842e-01
  +9.66270036303e-01+j2.43799641844e-01
  +9.79679573014e-01+j1.82603347832e-01
  +9.89217408701e-01+j1.20685404019e-01
  +9.94845849766e-01+j5.82905105835e-02
  +9.96542652567e-01-j4.33474738689e-03
</dep>
<dep S[2,1] frequency>
  +9.88683099794e-01-j1.24987105749e-01
  +9.78876027072e-01-j1.86862976654e-01
  +9.65200428947e-01-j2.48000363673e-01
  +9.47710351483e-01-j3.08157651394e-01
  +9.26474915599e-01-j3.67097097764e-01
  +9.01578043896e-01-j4.24585773649e-01
  +8.73118128999e-01-j4.80396483371e-01
  +8.41207644703e-01-j5.34308662585e-01
  +8.05972701484e-01-j5.86109249956e-01
  +7.67552548100e-01-j6.35593529172e-01
  +7.26099021287e-01-j6.82565937992e-01
  +6.81775945693e-01-j7.26840841103e-01
  +6.34758486445e-01-j7.68243263756e-01
  +5.85232456896e-01-j8.06609583266e-01
  +5.33393584286e-01-j8.41788175649e-01
  +4.79446736228e-01-j8.73640014846e-01
  +4.23605111071e-01-j9.02039222149e-01
  +3.66089395336e-01-j9.26873563677e-01
  +3.07126891564e-01-j9.48044893926e-01
  +2.46950620012e-01-j9.65469543640e-01
  +1.85798397756e-01-j9.79078650473e-01
  +1.23911898838e-01-j9.88818431132e-01
  +6.15356991663e-02-j9.94650393932e-01
  -1.08369005045e-03-j9.96551490911e-01
  -6.36987965160e-02-j9.94514208920e-01
  -1.26062164860e-01-j9.88546599312e-01
  -1.87927334582e-01-j9.78672246126e-01
  -2.49049814068e-01-j9.64930172880e-01
  -3.09188046820e-01-j9.47374688349e-01
  -3.68104366090e-01-j9.26075171941e-01
  -4.25565934144e-01-j9.01115799505e-01
  -4.81345662432e-01-j8.72595210667e-01
  -5.35223109051e-01-j8.40626119008e-01
  -5.86985349926e-01-j8.05334866619e-01
  -6.36427820294e-01-j7.66860924795e-01
  -6.83355123140e-01-j7.25356342841e-01
  -7.27581801412e-01-j6.80985147177e-01
  -7.68933070945e-01-j6.33922693101e-01
  -8.07245511211e-01-j5.84354971785e-01
  -8.42367711160e-01-j5.32477875236e-01
  -8.74160867593e-01-j4.78496422128e-01
  -9.02499333718e-01-j4.22623947570e-01
  -9.27271115704e-01-j3.65081259999e-01
  -9.48378315282e-01-j3.06095768549e-01
  -9.65737516642e-01-j2.45900584325e-01
  -9.79280116089e-01-j1.84733599147e-01
  -9.88952593169e-01-j1.22836545398e-01
  -9.94716722180e-01-j6.04540407007e-02
  -9.96549723240e-01+j2.16737881940e-03
  -9.94444352316e-01+j6.47802328422e-02
  -9.88408929850e-01+j1.27137074899e-01
  -9.78467307876e-01+j1.88991470281e-01
  -9.64658775759e-01+j2.50098969955e-01
  -9.47037904921e-01+j3.10218076623e-01
  -9.25674333177e-01+j3.69111199124e-01
  -9.00652489522e-01+j4.26545591396e-01
  -8.72071260469e-01+j4.82294272291e-01
  -8.40043599252e-01+j5.36136922602e-01
  -8.04696079426e-01+j5.87860755772e-01
  -7.66168394657e-01+j6.37261358824e-01
  -7.24612806642e-01+j6.84143500204e-01
  -6.80193543378e-01+j7.28321901337e-01
  -6.33086150127e-01+j7.69621968851e-01
  -5.83476795660e-01+j8.07880484569e-01
  -5.31561536518e-01+j8.42946250550e-01
  -4.77545542194e-01+j8.74680686623e-01
  -4.21642284305e-01+j9.02958378059e-01
  -3.64072692944e-01+j9.27667571209e-01
  -3.05064283568e-01+j9.48710615157e-01
  -2.44850257855e-01+j9.66004347635e-01
  -1.83668582086e-01+j9.79480423682e-01
  -1.21761046701e-01+j9.89085585744e-01
  -5.93723107467e-02+j9.94781874150e-01
  +3.25106502538e-03+j9.96546777124e-01
  +6.58615925641e-02+j9.94373319758e-01
  +1.28211834595e-01+j9.88270091569e-01
  +1.90055382493e-01+j9.78261212564e-01
  +2.51147830094e-01+j9.64386237905e-01
  +3.11247739585e-01+j9.46700001597e-01
  +3.70117595674e-01+j9.25272399779e-01
  +4.27524744248e-01+j9.00188114494e-01
  +4.83242311824e-01+j8.71546279026e-01
  +5.37050102158e-01+j8.39460086123e-01
  +5.88735466458e-01+j8.04056340660e-01
  +6.38094143776e-01+j7.65474958506e-01
  +6.84931068251e-01+j7.23868413571e-01
  +7.29061140004e-01+j6.79401135234e-01
  +7.70309956660e-01+j6.32248858513e-01
  +8.08514502588e-01+j5.82597929558e-01
  +8.43523793135e-01+j5.30644569214e-01
  +8.75199471321e-01+j4.76594097551e-01
  +9.03416354629e-01+j4.20660122438e-01
  +9.28062929725e-01+j3.63063695364e-01
  +9.49041793158e-01+j3.04032437842e-01
