<Qucs Dataset 0.0.18>
<indep frequency 99>
  +1.00000000000e+08
  +1.50000000000e+08
  +2.00000000000e+08
  +2.50000000000e+08
  +3.00000000000e+08
  +3.50000000000e+08
  +4.00000000000e+08
  +4.50000000000e+08
  +5.00000000000e+08
  +5.50000000000e+08
  +6.00000000000e+08
  +6.50000000000e+08
  +7.00000000000e+08
  +7.50000000000e+08
  +8.00000000000e+08
  +8.50000000000e+08
  +9.00000000000e+08
  +9.50000000000e+08
  +1.00000000000e+09
  +1.05000000000e+09
  +1.10000000000e+09
  +1.15000000000e+09
  +1.20000000000e+09
  +1.25000000000e+09
  +1.30000000000e+09
  +1.35000000000e+09
  +1.40000000000e+09
  +1.45000000000e+09
  +1.50000000000e+09
  +1.55000000000e+09
  +1.60000000000e+09
  +1.65000000000e+09
  +1.70000000000e+09
  +1.75000000000e+09
  +1.80000000000e+09
  +1.85000000000e+09
  +1.90000000000e+09
  +1.95000000000e+09
  +2.00000000000e+09
  +2.05000000000e+09
  +2.10000000000e+09
  +2.15000000000e+09
  +2.20000000000e+09
  +2.25000000000e+09
  +2.30000000000e+09
  +2.35000000000e+09
  +2.40000000000e+09
  +2.45000000000e+09
  +2.50000000000e+09
  +2.55000000000e+09
  +2.60000000000e+09
  +2.65000000000e+09
  +2.70000000000e+09
  +2.75000000000e+09
  +2.80000000000e+09
  +2.85000000000e+09
  +2.90000000000e+09
  +2.95000000000e+09
  +3.00000000000e+09
  +3.05000000000e+09
  +3.10000000000e+09
  +3.15000000000e+09
  +3.20000000000e+09
  +3.25000000000e+09
  +3.30000000000e+09
  +3.35000000000e+09
  +3.40000000000e+09
  +3.45000000000e+09
  +3.50000000000e+09
  +3.55000000000e+09
  +3.60000000000e+09
  +3.65000000000e+09
  +3.70000000000e+09
  +3.75000000000e+09
  +3.80000000000e+09
  +3.85000000000e+09
  +3.90000000000e+09
  +3.95000000000e+09
  +4.00000000000e+09
  +4.05000000000e+09
  +4.10000000000e+09
  +4.15000000000e+09
  +4.20000000000e+09
  +4.25000000000e+09
  +4.30000000000e+09
  +4.35000000000e+09
  +4.40000000000e+09
  +4.45000000000e+09
  +4.50000000000e+09
  +4.55000000000e+09
  +4.60000000000e+09
  +4.65000000000e+09
  +4.70000000000e+09
  +4.75000000000e+09
  +4.80000000000e+09
  +4.85000000000e+09
  +4.90000000000e+09
  +4.95000000000e+09
  +5.00000000000e+09
</indep>
<dep S[1,1] frequency>
  +0.00000000000e+00
  +0.00000000000e+00
  +0.00000000000e+00
  +0.00000000000e+00
  +0.00000000000e+00
  +0.00000000000e+00
  +0.00000000000e+00
  +0.00000000000e+00
  +0.00000000000e+00
  +0.00000000000e+00
  +0.00000000000e+00
  +0.00000000000e+00
  +0.00000000000e+00
  +0.00000000000e+00
  +0.00000000000e+00
  +0.00000000000e+00
  +0.00000000000e+00
  +0.00000000000e+00
  +0.00000000000e+00
  +0.00000000000e+00
  +0.00000000000e+00
  +0.00000000000e+00
  +0.00000000000e+00
  +0.00000000000e+00
  +0.00000000000e+00
  +0.00000000000e+00
  +0.00000000000e+00
  +0.00000000000e+00
  +0.00000000000e+00
  +0.00000000000e+00
  +0.00000000000e+00
  +0.00000000000e+00
  +0.00000000000e+00
  +0.00000000000e+00
  +0.00000000000e+00
  +0.00000000000e+00
  +0.00000000000e+00
  +0.00000000000e+00
  +0.00000000000e+00
  +0.00000000000e+00
  +0.00000000000e+00
  +0.00000000000e+00
  +0.00000000000e+00
  +0.00000000000e+00
  +0.00000000000e+00
  +0.00000000000e+00
  +0.00000000000e+00
  +0.00000000000e+00
  +0.00000000000e+00
  +0.00000000000e+00
  +0.00000000000e+00
  +0.00000000000e+00
  +0.00000000000e+00
  +0.00000000000e+00
  +0.00000000000e+00
  +0.00000000000e+00
  +0.00000000000e+00
  +0.00000000000e+00
  +0.00000000000e+00
  +0.00000000000e+00
  +0.00000000000e+00
  +0.00000000000e+00
  +0.00000000000e+00
  +0.00000000000e+00
  +0.00000000000e+00
  +0.00000000000e+00
  +0.00000000000e+00
  +0.00000000000e+00
  +0.00000000000e+00
  +0.00000000000e+00
  +0.00000000000e+00
  +0.00000000000e+00
  +0.00000000000e+00
  +0.00000000000e+00
  +0.00000000000e+00
  +0.00000000000e+00
  +0.00000000000e+00
  +0.00000000000e+00
  +0.00000000000e+00
  +0.00000000000e+00
  +0.00000000000e+00
  +0.00000000000e+00
  +0.00000000000e+00
  +0.00000000000e+00
  +0.00000000000e+00
  +0.00000000000e+00
  +0.00000000000e+00
  +0.00000000000e+00
  +0.00000000000e+00
  +0.00000000000e+00
  +0.00000000000e+00
  +0.00000000000e+00
  +0.00000000000e+00
  +0.00000000000e+00
  +0.00000000000e+00
  +0.00000000000e+00
  +0.00000000000e+00
  +0.00000000000e+00
  +0.00000000000e+00
</dep>
<dep S[1,2] frequency>
  +9.88683099794e-01-j1.24987105749e-01
  +9.78876027072e-01-j1.86862976654e-01
  +9.65200428947e-01-j2.48000363673e-01
  +9.47710351483e-01-j3.08157651394e-01
  +9.26474915599e-01-j3.67097097764e-01
  +9.01578043896e-01-j4.24585773649e-01
  +8.73118128999e-01-j4.80396483371e-01
  +8.41207644703e-01-j5.34308662585e-01
  +8.05972701484e-01-j5.86109249956e-01
  +7.67552548100e-01-j6.35593529172e-01
  +7.26099021287e-01-j6.82565937992e-01
  +6.81775945693e-01-j7.26840841103e-01
  +6.34758486445e-01-j7.68243263756e-01
  +5.85232456896e-01-j8.06609583266e-01
  +5.33393584286e-01-j8.41788175649e-01
  +4.79446736228e-01-j8.73640014846e-01
  +4.23605111071e-01-j9.02039222149e-01
  +3.66089395336e-01-j9.26873563677e-01
  +3.07126891564e-01-j9.48044893926e-01
  +2.46950620012e-01-j9.65469543640e-01
  +1.85798397756e-01-j9.79078650473e-01
  +1.23911898838e-01-j9.88818431132e-01
  +6.15356991663e-02-j9.94650393932e-01
  -1.08369005045e-03-j9.96551490911e-01
  -6.36987965160e-02-j9.94514208920e-01
  -1.26062164860e-01-j9.88546599312e-01
  -1.87927334582e-01-j9.78672246126e-01
  -2.49049814068e-01-j9.64930172880e-01
  -3.09188046820e-01-j9.47374688349e-01
  -3.68104366090e-01-j9.26075171941e-01
  -4.25565934144e-01-j9.01115799505e-01
  -4.81345662432e-01-j8.72595210667e-01
  -5.35223109051e-01-j8.40626119008e-01
  -5.86985349926e-01-j8.05334866619e-01
  -6.36427820294e-01-j7.66860924795e-01
  -6.83355123140e-01-j7.25356342841e-01
  -7.27581801412e-01-j6.80985147177e-01
  -7.68933070945e-01-j6.33922693101e-01
  -8.07245511211e-01-j5.84354971785e-01
  -8.42367711160e-01-j5.32477875236e-01
  -8.74160867593e-01-j4.78496422128e-01
  -9.02499333718e-01-j4.22623947570e-01
  -9.27271115704e-01-j3.65081259999e-01
  -9.48378315282e-01-j3.06095768549e-01
  -9.65737516642e-01-j2.45900584325e-01
  -9.79280116089e-01-j1.84733599147e-01
  -9.88952593169e-01-j1.22836545398e-01
  -9.94716722180e-01-j6.04540407007e-02
  -9.96549723240e-01+j2.16737881940e-03
  -9.94444352316e-01+j6.47802328422e-02
  -9.88408929850e-01+j1.27137074899e-01
  -9.78467307876e-01+j1.88991470281e-01
  -9.64658775759e-01+j2.50098969955e-01
  -9.47037904921e-01+j3.10218076623e-01
  -9.25674333177e-01+j3.69111199124e-01
  -9.00652489522e-01+j4.26545591396e-01
  -8.72071260469e-01+j4.82294272291e-01
  -8.40043599252e-01+j5.36136922602e-01
  -8.04696079426e-01+j5.87860755772e-01
  -7.66168394657e-01+j6.37261358824e-01
  -7.24612806642e-01+j6.84143500204e-01
  -6.80193543378e-01+j7.28321901337e-01
  -6.33086150127e-01+j7.69621968851e-01
  -5.83476795660e-01+j8.07880484569e-01
  -5.31561536518e-01+j8.42946250550e-01
  -4.77545542194e-01+j8.74680686623e-01
  -4.21642284305e-01+j9.02958378059e-01
  -3.64072692944e-01+j9.27667571209e-01
  -3.05064283568e-01+j9.48710615157e-01
  -2.44850257855e-01+j9.66004347635e-01
  -1.83668582086e-01+j9.79480423682e-01
  -1.21761046701e-01+j9.89085585744e-01
  -5.93723107467e-02+j9.94781874150e-01
  +3.25106502538e-03+j9.96546777124e-01
  +6.58615925641e-02+j9.94373319758e-01
  +1.28211834595e-01+j9.88270091569e-01
  +1.90055382493e-01+j9.78261212564e-01
  +2.51147830094e-01+j9.64386237905e-01
  +3.11247739585e-01+j9.46700001597e-01
  +3.70117595674e-01+j9.25272399779e-01
  +4.27524744248e-01+j9.00188114494e-01
  +4.83242311824e-01+j8.71546279026e-01
  +5.37050102158e-01+j8.39460086123e-01
  +5.88735466458e-01+j8.04056340660e-01
  +6.38094143776e-01+j7.65474958506e-01
  +6.84931068251e-01+j7.23868413571e-01
  +7.29061140004e-01+j6.79401135234e-01
  +7.70309956660e-01+j6.32248858513e-01
  +8.08514502588e-01+j5.82597929558e-01
  +8.43523793135e-01+j5.30644569214e-01
  +8.75199471321e-01+j4.76594097551e-01
  +9.03416354629e-01+j4.20660122438e-01
  +9.28062929725e-01+j3.63063695364e-01
  +9.49041793158e-01+j3.04032437842e-01
  +9.66270036303e-01+j2.43799641844e-01
  +9.79679573014e-01+j1.82603347832e-01
  +9.89217408701e-01+j1.20685404019e-01
  +9.94845849766e-01+j5.82905105835e-02
  +9.96542652567e-01-j4.33474738689e-03
</dep>
<dep S[2,1] frequency>
  +9.88683099794e-01-j1.24987105749e-01
  +9.78876027072e-01-j1.86862976654e-01
  +9.65200428947e-01-j2.48000363673e-01
  +9.47710351483e-01-j3.08157651394e-01
  +9.26474915599e-01-j3.67097097764e-01
  +9.01578043896e-01-j4.24585773649e-01
  +8.73118128999e-01-j4.80396483371e-01
  +8.41207644703e-01-j5.34308662585e-01
  +8.05972701484e-01-j5.86109249956e-01
  +7.67552548100e-01-j6.35593529172e-01
  +7.26099021287e-01-j6.82565937992e-01
  +6.81775945693e-01-j7.26840841103e-01
  +6.34758486445e-01-j7.68243263756e-01
  +5.85232456896e-01-j8.06609583266e-01
  +5.33393584286e-01-j8.41788175649e-01
  +4.79446736228e-01-j8.73640014846e-01
  +4.23605111071e-01-j9.02039222149e-01
  +3.66089395336e-01-j9.26873563677e-01
  +3.07126891564e-01-j9.48044893926e-01
  +2.46950620012e-01-j9.65469543640e-01
  +1.85798397756e-01-j9.79078650473e-01
  +1.23911898838e-01-j9.88818431132e-01
  +6.15356991663e-02-j9.94650393932e-01
  -1.08369005045e-03-j9.96551490911e-01
  -6.36987965160e-02-j9.94514208920e-01
  -1.26062164860e-01-j9.88546599312e-01
  -1.87927334582e-01-j9.78672246126e-01
  -2.49049814068e-01-j9.64930172880e-01
  -3.09188046820e-01-j9.47374688349e-01
  -3.68104366090e-01-j9.26075171941e-01
  -4.25565934144e-01-j9.01115799505e-01
  -4.81345662432e-01-j8.72595210667e-01
  -5.35223109051e-01-j8.40626119008e-01
  -5.86985349926e-01-j8.05334866619e-01
  -6.36427820294e-01-j7.66860924795e-01
  -6.83355123140e-01-j7.25356342841e-01
  -7.27581801412e-01-j6.80985147177e-01
  -7.68933070945e-01-j6.33922693101e-01
  -8.07245511211e-01-j5.84354971785e-01
  -8.42367711160e-01-j5.32477875236e-01
  -8.74160867593e-01-j4.78496422128e-01
  -9.02499333718e-01-j4.22623947570e-01
  -9.27271115704e-01-j3.65081259999e-01
  -9.48378315282e-01-j3.06095768549e-01
  -9.65737516642e-01-j2.45900584325e-01
  -9.79280116089e-01-j1.84733599147e-01
  -9.88952593169e-01-j1.22836545398e-01
  -9.94716722180e-01-j6.04540407007e-02
  -9.96549723240e-01+j2.16737881940e-03
  -9.94444352316e-01+j6.47802328422e-02
  -9.88408929850e-01+j1.27137074899e-01
  -9.78467307876e-01+j1.88991470281e-01
  -9.64658775759e-01+j2.50098969955e-01
  -9.47037904921e-01+j3.10218076623e-01
  -9.25674333177e-01+j3.69111199124e-01
  -9.00652489522e-01+j4.26545591396e-01
  -8.72071260469e-01+j4.82294272291e-01
  -8.40043599252e-01+j5.36136922602e-01
  -8.04696079426e-01+j5.87860755772e-01
  -7.66168394657e-01+j6.37261358824e-01
  -7.24612806642e-01+j6.84143500204e-01
  -6.80193543378e-01+j7.28321901337e-01
  -6.33086150127e-01+j7.69621968851e-01
  -5.83476795660e-01+j8.07880484569e-01
  -5.31561536518e-01+j8.42946250550e-01
  -4.77545542194e-01+j8.74680686623e-01
  -4.21642284305e-01+j9.02958378059e-01
  -3.64072692944e-01+j9.27667571209e-01
  -3.05064283568e-01+j9.48710615157e-01
  -2.44850257855e-01+j9.66004347635e-01
  -1.83668582086e-01+j9.79480423682e-01
  -1.21761046701e-01+j9.89085585744e-01
  -5.93723107467e-02+j9.94781874150e-01
  +3.25106502538e-03+j9.96546777124e-01
  +6.58615925641e-02+j9.94373319758e-01
  +1.28211834595e-01+j9.88270091569e-01
  +1.90055382493e-01+j9.78261212564e-01
  +2.51147830094e-01+j9.64386237905e-01
  +3.11247739585e-01+j9.46700001597e-01
  +3.70117595674e-01+j9.25272399779e-01
  +4.27524744248e-01+j9.00188114494e-01
  +4.83242311824e-01+j8.71546279026e-01
  +5.37050102158e-01+j8.39460086123e-01
  +5.88735466458e-01+j8.04056340660e-01
  +6.38094143776e-01+j7.65474958506e-01
  +6.84931068251e-01+j7.23868413571e-01
  +7.29061140004e-01+j6.79401135234e-01
  +7.70309956660e-01+j6.32248858513e-01
  +8.08514502588e-01+j5.82597929558e-01
  +8.43523793135e-01+j5.30644569214e-01
  +8.75199471321e-01+j4.76594097551e-01
  +9.03416354629e-01+j4.20660122438e-01
  +9.28062929725e-01+j3.63063695364e-01
  +9.49041793158e-01+j3.04032437842e-01
  +9.66270036303e-01+j2.43799641844e-01
  +9.79679573014e-01+j1.82603347832e-01
  +9.89217408701e-01+j1.20685404019e-01
  +9.94845849766e-01+j5.82905105835e-02
  +9.96542652567e-01-j4.33474738689e-03
</dep>
<dep S[2,2] frequency>
  +0.00000000000e+00
  +0.00000000000e+00
  +0.00000000000e+00
  +0.00000000000e+00
  +0.00000000000e+00
  +0.00000000000e+00
  +0.00000000000e+00
  +0.00000000000e+00
  +0.00000000000e+00
  +0.00000000000e+00
  +0.00000000000e+00
  +0.00000000000e+00
  +0.00000000000e+00
  +0.00000000000e+00
  +0.00000000000e+00
  +0.00000000000e+00
  +0.00000000000e+00
  +0.00000000000e+00
  +0.00000000000e+00
  +0.00000000000e+00
  +0.00000000000e+00
  +0.00000000000e+00
  +0.00000000000e+00
  +0.00000000000e+00
  +0.00000000000e+00
  +0.00000000000e+00
  +0.00000000000e+00
  +0.00000000000e+00
  +0.00000000000e+00
  +0.00000000000e+00
  +0.00000000000e+00
  +0.00000000000e+00
  +0.00000000000e+00
  +0.00000000000e+00
  +0.00000000000e+00
  +0.00000000000e+00
  +0.00000000000e+00
  +0.00000000000e+00
  +0.00000000000e+00
  +0.00000000000e+00
  +0.00000000000e+00
  +0.00000000000e+00
  +0.00000000000e+00
  +0.00000000000e+00
  +0.00000000000e+00
  +0.00000000000e+00
  +0.00000000000e+00
  +0.00000000000e+00
  +0.00000000000e+00
  +0.00000000000e+00
  +0.00000000000e+00
  +0.00000000000e+00
  +0.00000000000e+00
  +0.00000000000e+00
  +0.00000000000e+00
  +0.00000000000e+00
  +0.00000000000e+00
  +0.00000000000e+00
  +0.00000000000e+00
  +0.00000000000e+00
  +0.00000000000e+00
  +0.00000000000e+00
  +0.00000000000e+00
  +0.00000000000e+00
  +0.00000000000e+00
  +0.00000000000e+00
  +0.00000000000e+00
  +0.00000000000e+00
  +0.00000000000e+00
  +0.00000000000e+00
  +0.00000000000e+00
  +0.00000000000e+00
  +0.00000000000e+00
  +0.00000000000e+00
  +0.00000000000e+00
  +0.00000000000e+00
  +0.00000000000e+00
  +0.00000000000e+00
  +0.00000000000e+00
  +0.00000000000e+00
  +0.00000000000e+00
  +0.00000000000e+00
  +0.00000000000e+00
  +0.00000000000e+00
  +0.00000000000e+00
  +0.00000000000e+00
  +0.00000000000e+00
  +0.00000000000e+00
  +0.00000000000e+00
  +0.00000000000e+00
  +0.00000000000e+00
  +0.00000000000e+00
  +0.00000000000e+00
  +0.00000000000e+00
  +0.00000000000e+00
  +0.00000000000e+00
  +0.00000000000e+00
  +0.00000000000e+00
  +0.00000000000e+00
</dep>
